 ****** HSPICE -- M-2017.03-SP2-2 linux64 (Oct 30 2017) ******                  
  Copyright (c) 1986 - 2021 by Synopsys, Inc. All Rights Reserved.              
  This software and the associated documentation are proprietary
  to Synopsys, Inc. This software may only be used in accordance
  with the terms and conditions of a written license agreement with
  Synopsys, Inc. All other use, reproduction, or distribution of
  this software is strictly prohibited.
  Input File: hspice1.sp                                                        
  Command line options: /home/cad/tools/synopsys/hspice/latest/hspice/linux64/hspice -i hspice1.sp -o hspice1.lis
 lic:  
 lic: FLEXlm: SDK_11.6.4 
 lic: USER:   ntak                 HOSTNAME: laplace.takai-lab.el.gunma-u.ac.jp 
 lic: HOSTID: "6cae8b772444"       PID:      31023 
 lic: Using FLEXlm license file: 
 lic: 1700@vdec-cad1 
 lic: Checkout 1 hspice 
 lic: License/Maintenance for hspice will expire on 31-mar-2021/2020.03 
 lic: 17(in_use)/180(total) FLOATING license(s) on SERVER 1700@vdec-cad1 
 lic:   
  **warning** (../Sp_Data/OPamp.sp:4) unknown command ".csparam" is ignored
1****** HSPICE -- M-2017.03-SP2-2 linux64 (Oct 30 2017) ******                  
 ******  
 .title testbench for hspice

 ****** circuit name directory
 circuit number to circuit name directory
   number circuitname                     definition         multiplier
        0 main circuit
        1 xcc.                            opamp              1.00 
 

 Warning: Pd = 0 is less than Weff = 3.78423e-06 in BSIM3 model 0:cmosn element m1 with W = 3.79e-06, L = 2e-06

  
      
 *****************************************************************
 ******  option summary
 ******
 runlvl  = 3         bypass  = 2.00000   
 ******
 .title testbench for hspice

 ****** dc transfer curves tnom=  25.000 temp= -40.000 ******
  *** parameter step =   1.3500e+00       ***
  
 ivdd=-2.3338e-04
 ivss=-2.3340e-04
 ib= 2.3340e-04
 pdis= 6.3017e-04
 ******
 .title testbench for hspice

 ****** dc transfer curves tnom=  25.000 temp= -40.000 ******
  *** parameter step =   1.5000e+00       ***
  
 ivdd=-2.6581e-04
 ivss=-2.6583e-04
 ib= 2.6583e-04
 pdis= 7.9750e-04
 ******
 .title testbench for hspice

 ****** dc transfer curves tnom=  25.000 temp= -40.000 ******
  *** parameter step =   1.6500e+00       ***
  
 ivdd=-2.9854e-04
 ivss=-2.9857e-04
 ib= 2.9857e-04
 pdis= 9.8527e-04
 ******
 .title testbench for hspice

 ****** dc transfer curves tnom=  25.000 temp=  25.000 ******
  *** parameter step =   1.3500e+00       ***
  
 ivdd=-2.3018e-04
 ivss=-2.3021e-04
 ib= 2.3021e-04
 pdis= 6.2155e-04
 ******
 .title testbench for hspice

 ****** dc transfer curves tnom=  25.000 temp=  25.000 ******
  *** parameter step =   1.5000e+00       ***
  
 ivdd=-2.6190e-04
 ivss=-2.6193e-04
 ib= 2.6193e-04
 pdis= 7.8580e-04
 ******
 .title testbench for hspice

 ****** dc transfer curves tnom=  25.000 temp=  25.000 ******
  *** parameter step =   1.6500e+00       ***
  
 ivdd=-2.9388e-04
 ivss=-2.9391e-04
 ib= 2.9391e-04
 pdis= 9.6991e-04
 ******
 .title testbench for hspice

 ****** dc transfer curves tnom=  25.000 temp=  80.000 ******
  *** parameter step =   1.3500e+00       ***
  
 ivdd=-2.2773e-04
 ivss=-2.2776e-04
 ib= 2.2776e-04
 pdis= 6.1494e-04
 ******
 .title testbench for hspice

 ****** dc transfer curves tnom=  25.000 temp=  80.000 ******
  *** parameter step =   1.5000e+00       ***
  
 ivdd=-2.5901e-04
 ivss=-2.5905e-04
 ib= 2.5905e-04
 pdis= 7.7714e-04
 ******
 .title testbench for hspice

 ****** dc transfer curves tnom=  25.000 temp=  80.000 ******
  *** parameter step =   1.6500e+00       ***
  
 ivdd=-2.9053e-04
 ivss=-2.9057e-04
 ib= 2.9057e-04
 pdis= 9.5887e-04

          ***** job concluded
 ******  
 .title testbench for hspice

 ****** job statistics summary tnom=  25.000 temp=  80.000 ******
  
  
 ******  Machine Information  ******
 CPU:
 model name	: Intel(R) Xeon(R) CPU E7- 4830  @ 2.13GHz
 cpu MHz	: 1064.000
  
 OS:
 Linux version 3.10.0-1160.15.2.el7.x86_64 (mockbuild@kbuilder.bsys.centos.org) (gcc version 4.8.5 20150623 (Red Hat 4.8.5-44) (GCC) ) #1 SMP Wed Feb 3 15:06:38 UTC 2021


  ******  HSPICE Threads Information  ******

  Command Line Threads Count :     1
  Available CPU Count        :    64
  Actual Threads Count       :     1


  ******  Circuit Statistics  ******
  # nodes       =      10 # elements   =      15
  # resistors   =       3 # capacitors =       1 # inductors   =       0
  # mutual_inds =       0 # vccs       =       0 # vcvs        =       0
  # cccs        =       0 # ccvs       =       0 # volt_srcs   =       3
  # curr_srcs   =       0 # diodes     =       0 # bjts        =       0
  # jfets       =       0 # mosfets    =       8 # U elements  =       0
  # T elements  =       0 # W elements =       0 # B elements  =       0
  # S elements  =       0 # P elements =       0 # va device   =       0
  # vector_srcs =       0 # N elements =       0


  ******  Runtime Statistics (seconds)  ******

  analysis           time    # points   tot. iter  conv.iter
  op point           0.00           1           0
  dc sweep           0.03           9         169
  readin             0.07
  errchk             0.01
  setup              0.00
  output             0.00


           peak memory used        295.49 megabytes
           total cpu time            0.12 seconds
           total elapsed time        0.78 seconds
           job started at     11:06:27 03/30/2021
           job ended   at     11:06:28 03/30/2021


 ******  
 $irn

 ****** circuit name directory
 circuit number to circuit name directory
   number circuitname                     definition         multiplier
        0 main circuit
        1 xirn.                           opamp              1.00 
  
      
 *****************************************************************
 ******  option summary
 ******
 runlvl  = 3         bypass  = 2.00000   
  *** pseudo tran succeeded *** 
 ******  
 $irn

 ****** operating point information tnom=  25.000 temp=  25.000 ******
 ****** operating point status is all       simulation time is   0.0000e+00
    node    =voltage       node    =voltage       node    =voltage

 +0:inm     =-2.7611e-04 0:inp     = 0.0000e+00 0:out     =-5.5223e-04
 +0:vdd     = 1.5000e+00 0:vss     =-1.5000e+00 1:n001    = 6.3885e-01
 +1:n002    = 5.9594e-01 1:n003    =-6.1765e-01 1:n005    =-9.8950e-01


 **** voltage sources

 subckt                                      
 element   0:vdd       0:vin       0:vss     
  volts    1.5000e+00  0.0000e+00  1.5000e+00
  current -2.6190e-04  0.0000e+00 -2.6193e-04
  power    3.9286e-04  0.0000e+00  3.9290e-04

     total voltage source power dissipation=  7.8576e-04      watts



 **** resistors

 subckt                           xirn       
 element   0:r1        0:r2        1:r1      
  r value  1.0000e+04  1.0000e+04  1.1500e+05
  v drop  -2.7611e-04 -2.7611e-04  2.4895e+00
  current -2.7611e-08 -2.7611e-08  2.1648e-05
  power    7.6239e-12  7.6239e-12  5.3892e-05



 **** mosfets


 subckt   xirn        xirn        xirn        xirn        xirn       
 element   1:m1        1:m2        1:m3        1:m4        1:m5      
 model     0:cmosn     0:cmosp     0:cmosn     0:cmosp     0:cmosn   
 region     Saturatio   Saturatio   Saturatio   Saturatio   Saturatio
  id       1.1018e-05 -1.1032e-05  1.1032e-05 -1.1018e-05  2.2050e-05
  ibs      0.0000e+00  0.0000e+00  0.0000e+00  0.0000e+00  0.0000e+00
  ibd      0.0000e+00  0.0000e+00  0.0000e+00  0.0000e+00  0.0000e+00
  vgs      6.1738e-01 -8.6115e-01  6.1765e-01 -8.6115e-01  5.1050e-01
  vds      1.2565e+00 -9.0406e-01  1.2135e+00 -8.6115e-01  8.8235e-01
  vbs      0.0000e+00  0.0000e+00  0.0000e+00  0.0000e+00  0.0000e+00
  vth      3.9551e-01 -3.9726e-01  3.9554e-01 -3.9730e-01  3.9642e-01
  vdsat    1.6873e-01 -3.5847e-01  1.6889e-01 -3.5843e-01  9.8505e-02
  vod      2.2187e-01 -4.6389e-01  2.2211e-01 -4.6384e-01  1.1407e-01
  beta     5.7353e-04  1.3051e-04  5.7354e-04  1.3051e-04  4.0723e-03
  gam eff  5.7629e-01  5.3051e-01  5.7629e-01  5.3051e-01  5.7677e-01
  gm       9.8343e-05  4.3637e-05  9.8390e-05  4.3595e-05  3.3486e-04
  gds      3.0834e-07  3.2019e-07  3.1078e-07  3.2673e-07  1.0171e-06
  gmb      2.7149e-05  1.4303e-05  2.7163e-05  1.4291e-05  9.4516e-05
  cdtot    3.2311e-15  2.9660e-15  3.2313e-15  2.9713e-15  2.3051e-14
  cgtot    5.8121e-14  5.6202e-14  5.8122e-14  5.6208e-14  4.0486e-13
  cstot    3.0657e-14  3.0293e-14  3.0658e-14  3.0296e-14  2.1140e-13
  cbtot    1.6237e-14  1.5374e-14  1.6236e-14  1.5375e-14  1.1788e-13
  cgs      5.1770e-14  5.1179e-14  5.1772e-14  5.1184e-14  3.5417e-13
  cgd      3.2050e-15  2.9382e-15  3.2053e-15  2.9443e-15  2.2870e-14



 subckt   xirn        xirn        xirn       
 element   1:m6        1:m7        1:m8      
 model     0:cmosp     0:cmosn     0:cmosn   
 region     Saturatio   Saturatio   Saturatio
  id      -2.1821e-04  2.1823e-04  2.1648e-05
  ibs      0.0000e+00  0.0000e+00  0.0000e+00
  ibd      0.0000e+00  0.0000e+00  0.0000e+00
  vgs     -9.0406e-01  5.1050e-01  5.1050e-01
  vds     -1.5005e+00  1.4994e+00  5.1050e-01
  vbs      0.0000e+00  0.0000e+00  0.0000e+00
  vth     -3.9662e-01  3.9598e-01  3.9675e-01
  vdsat   -3.9727e-01  9.8862e-02  9.8311e-02
  vod     -5.0745e-01  1.1452e-01  1.1375e-01
  beta     2.1045e-03  3.9236e-02  4.0724e-03
  gam eff  5.3077e-01  5.7684e-01  5.7677e-01
  gm       7.8189e-04  3.2872e-03  3.3031e-04
  gds      5.3002e-06  9.3541e-06  1.2040e-06
  gmb      2.6056e-04  9.2710e-04  9.3286e-05
  cdtot    4.8192e-14  2.2192e-13  2.3151e-14
  cgtot    9.1517e-13  3.9006e-12  4.0501e-13
  cstot    4.9597e-13  2.0371e-12  2.1152e-13
  cbtot    2.5073e-13  1.1358e-12  1.1795e-13
  cgs      8.3523e-13  3.4123e-12  3.5424e-13
  cgd      4.7706e-14  2.2016e-13  2.2979e-14



 ******  
 $irn

 ****** noise analysis tnom=  25.000 temp=  25.000 ******
 

====== Noise output port at: v(out)                          ======
 
     frequency = 1.0000e-01      hz

  
 Element Source Noise (V^2/Hz) Source Value (A^2/Hz) Source rx (Ohm) Integrated noise (V) 
 xirn.m3 TOT    8.754711e-06                                         0.                   
         rd     0.             0.                    0.              0.                   
         rs     0.             0.                    0.              0.                   
         id     5.697149e-16   1.38159e-24           2.030673e+04    0.                   
         fn     8.754711e-06   2.123058e-14          2.030673e+04    0.                   
 xirn.m1 TOT    8.752244e-06                                         0.                   
         rd     0.             0.                    0.              0.                   
         rs     0.             0.                    0.              0.                   
         id     5.699164e-16   1.3809e-24            2.031537e+04    0.                   
         fn     8.752244e-06   2.120655e-14          2.031537e+04    0.                   
 xirn.m2 TOT    2.907008e-07                                         0.                   
         rd     0.             0.                    0.              0.                   
         rs     0.             0.                    0.              0.                   
         id     2.674116e-16   6.39507e-25           2.044878e+04    0.                   
         fn     2.907008e-07   6.952025e-16          2.044878e+04    0.                   
 xirn.m4 TOT    2.825656e-07                                         0.                   
         rd     0.             0.                    0.              0.                   
         rs     0.             0.                    0.              0.                   
         id     2.600492e-16   6.39e-25              2.017331e+04    0.                   
         fn     2.825656e-07   6.943281e-16          2.017331e+04    0.                   
 xirn.m5 TOT    7.990132e-10                                         0.                   
         rd     0.             0.                    0.              0.                   
         rs     0.             0.                    0.              0.                   
         id     9.53346e-20    4.72432e-24           1.420546e+02    0.                   
         fn     7.990132e-10   3.959525e-14          1.420546e+02    0.                   
 xirn.m7 TOT    8.427388e-11                                         0.                   
         rd     0.             0.                    0.              0.                   
         rs     0.             0.                    0.              0.                   
         id     1.25389e-20    4.63627e-23           1.644543e+01    0.                   
         fn     8.427388e-11   3.116035e-13          1.644543e+01    0.                   
 xirn.m8 TOT    1.418040e-11                                         0.                   
         rd     0.             0.                    0.              0.                   
         rs     0.             0.                    0.              0.                   
         id     1.6979e-21     4.66302e-24           1.908190e+01    0.                   
         fn     1.418040e-11   3.894441e-14          1.908190e+01    0.                   
 xirn.m6 TOT    3.718896e-12                                         0.                   
         rd     0.             0.                    0.              0.                   
         rs     0.             0.                    0.              0.                   
         id     3.11047e-21    1.1501e-23            1.644543e+01    0.                   
         fn     3.718896e-12   1.375065e-14          1.644543e+01    0.                   
 xirn.r1 TOT    5.21333e-23                                          0.                   
         rs     5.21333e-23    1.43177e-25           1.908190e+01    0.                   
         1/f    0.             0.                    1.908190e+01    0.                   
 r1      TOT    0.                                                   0.                   
         rs     0.             0.                    9.981145e+03    0.                   
         1/f    0.             0.                    9.981145e+03    0.                   
 r2      TOT    0.                                                   0.                   
         rs     0.             0.                    9.997590e+03    0.                   
         1/f    0.             0.                    9.997590e+03    0.                   
 



 **** total output noise voltage         = 1.8081e-05      sq v/hz
                                         = 4.2522e-03      v/rt hz

       transfer function value:
        v(out)/vin                       = 1.9979e+00     
      equivalent input noise at vin                           
                                         = 2.1283e-03      /rt hz
 


 **** the results of the sqrt of integral (v**2 / freq)
      from fstart upto  1.0000e-01      hz. using more freq points 
      results in more accurate total noise values.     

 **** total output noise voltage   =  0.0000e+00      volts         

  **** total equivalent input noise =  0.0000e+00                    



 ******  
 $irn

 ****** noise analysis tnom=  25.000 temp=  25.000 ******
 

====== Noise output port at: v(out)                          ======
 
     frequency = 1.0233e-01      hz

  
 Element Source Noise (V^2/Hz) Source Value (A^2/Hz) Source rx (Ohm) Integrated noise (V) 
 xirn.m3 TOT    8.555430e-06                                         1.419868e-04         
         rd     0.             0.                    0.              0.                   
         rs     0.             0.                    0.              0.                   
         id     5.697149e-16   1.38159e-24           2.030673e+04    1.151971e-09         
         fn     8.555430e-06   2.074732e-14          2.030673e+04    1.419868e-04         
 xirn.m1 TOT    8.553018e-06                                         1.419668e-04         
         rd     0.             0.                    0.              0.                   
         rs     0.             0.                    0.              0.                   
         id     5.699164e-16   1.3809e-24            2.031537e+04    1.152174e-09         
         fn     8.553018e-06   2.072383e-14          2.031537e+04    1.419668e-04         
 xirn.m2 TOT    2.840836e-07                                         2.587320e-05         
         rd     0.             0.                    0.              0.                   
         rs     0.             0.                    0.              0.                   
         id     2.674116e-16   6.39507e-25           2.044878e+04    7.892285e-10         
         fn     2.840836e-07   6.793777e-16          2.044878e+04    2.587320e-05         
 xirn.m4 TOT    2.761336e-07                                         2.550860e-05         
         rd     0.             0.                    0.              0.                   
         rs     0.             0.                    0.              0.                   
         id     2.600492e-16   6.39e-25              2.017331e+04    7.782882e-10         
         fn     2.761336e-07   6.785232e-16          2.017331e+04    2.550860e-05         
 xirn.m5 TOT    7.808255e-10                                         1.356451e-06         
         rd     0.             0.                    0.              0.                   
         rs     0.             0.                    0.              0.                   
         id     9.53346e-20    4.72432e-24           1.420546e+02    1.490177e-11         
         fn     7.808255e-10   3.869395e-14          1.420546e+02    1.356451e-06         
 xirn.m7 TOT    8.235557e-11                                         4.405280e-07         
         rd     0.             0.                    0.              0.                   
         rs     0.             0.                    0.              0.                   
         id     1.25389e-20    4.63627e-23           1.644543e+01    5.404334e-12         
         fn     8.235557e-11   3.045105e-13          1.644543e+01    4.405280e-07         
 xirn.m8 TOT    1.385762e-11                                         1.807055e-07         
         rd     0.             0.                    0.              0.                   
         rs     0.             0.                    0.              0.                   
         id     1.6979e-21     4.66302e-24           1.908190e+01    1.988695e-12         
         fn     1.385762e-11   3.805793e-14          1.908190e+01    1.807055e-07         
 xirn.m6 TOT    3.634244e-12                                         9.254098e-08         
         rd     0.             0.                    0.              0.                   
         rs     0.             0.                    0.              0.                   
         id     3.11047e-21    1.1501e-23            1.644543e+01    2.691692e-12         
         fn     3.634244e-12   1.343765e-14          1.644543e+01    9.254098e-08         
 xirn.r1 TOT    5.21333e-23                                          3.484740e-13         
         rs     5.21333e-23    1.43177e-25           1.908190e+01    3.484740e-13         
         1/f    0.             0.                    1.908190e+01    0.                   
 r1      TOT    0.                                                   0.                   
         rs     0.             0.                    9.981145e+03    0.                   
         1/f    0.             0.                    9.981145e+03    0.                   
 r2      TOT    0.                                                   0.                   
         rs     0.             0.                    9.997590e+03    0.                   
