 ****** HSPICE -- M-2017.03-SP2-2 linux64 (Oct 30 2017) ******                  
  Copyright (c) 1986 - 2021 by Synopsys, Inc. All Rights Reserved.              
  This software and the associated documentation are proprietary
  to Synopsys, Inc. This software may only be used in accordance
  with the terms and conditions of a written license agreement with
  Synopsys, Inc. All other use, reproduction, or distribution of
  this software is strictly prohibited.
  Input File: hspice2.sp
  Command line options: /home/cad/tools/synopsys/hspice/latest/hspice/linux64/hspice -i hspice2.sp -o hspice2.lis
 lic:
 lic: FLEXlm: SDK_11.6.4
 lic: USER:   ntak                 HOSTNAME: laplace.takai-lab.el.gunma-u.ac.jp
 lic: HOSTID: "6cae8b772444"       PID:      42059
 lic: Using FLEXlm license file:
 lic: 1700@vdec-cad1
 lic: Checkout 1 hspice
 lic: License/Maintenance for hspice will expire on 31-mar-2021/2020.03
 lic: 17(in_use)/180(total) FLOATING license(s) on SERVER 1700@vdec-cad1
 lic:
  **warning** (../Sp_Data/OPamp.sp:4) unknown command ".csparam" is ignored
1****** HSPICE -- M-2017.03-SP2-2 linux64 (Oct 30 2017) ******
 ******
 .title testbench for hspice

 ****** circuit name directory
 circuit number to circuit name directory
   number circuitname                     definition         multiplier
        0 main circuit
        1 x1a.                            opamp              1.00
        2 x1b.                            opamp              1.00
        3 x1c.                            opamp              1.00


 Warning: Pd = 0 is less than Weff = 3.78423e-06 in BSIM3 model 0:cmosn element m1 with W = 3.79e-06, L = 2e-06



 *****************************************************************
 ******  option summary
 ******
 runlvl  = 3         bypass  = 2.00000
  Opening plot unit= 15
 file=hspice2.pa0

  *** pseudo tran succeeded ***
 ******
 .title testbench for hspice

 ****** operating point information tnom=  25.000 temp=  25.000 ******
 ****** operating point status is voltage   simulation time is   0.0000e+00
    node    =voltage       node    =voltage       node    =voltage

 +0:in1     =-6.0000e-01 0:in2     = 6.0000e-01 0:inm1    =-5.9964e-01
 +0:inm2    = 5.9826e-01 0:inm3    =-2.7611e-04 0:os      =-5.5223e-04
 +0:out1    =-1.1992e+00 0:out2    = 1.1965e+00 0:vdd     = 1.5000e+00
 +0:vss     =-1.5000e+00 1:n001    = 6.4688e-01 1:n002    = 7.0422e-01
 +1:n003    =-1.2116e+00 1:n005    =-9.8950e-01 2:n001    = 6.3282e-01
 +2:n002    = 4.2169e-01 2:n003    =-2.3886e-02 2:n005    =-9.8950e-01
 +3:n001    = 6.3885e-01 3:n002    = 5.9594e-01 3:n003    =-6.1765e-01
 +3:n005    =-9.8950e-01

 ******
 .title testbench for hspice

 ****** transient analysis tnom=  25.000 temp=  25.000 ******
x

 time          voltage     voltage     voltage
              in1         out1        out2
                          os          os
  0.00000e+00 -6.0000e-01 -1.1987e+00  1.1971e+00
  1.00000e-08 -6.0000e-01 -1.1987e+00  1.1971e+00
  2.00000e-08 -6.0000e-01 -1.1987e+00  1.1971e+00
  3.00000e-08 -6.0000e-01 -1.1987e+00  1.1971e+00
  4.00000e-08 -6.0000e-01 -1.1987e+00  1.1971e+00
  5.00000e-08 -6.0000e-01 -1.1987e+00  1.1971e+00
  6.00000e-08 -6.0000e-01 -1.1987e+00  1.1971e+00
  7.00000e-08 -6.0000e-01 -1.1987e+00  1.1971e+00
  8.00000e-08 -6.0000e-01 -1.1987e+00  1.1971e+00
  9.00000e-08 -6.0000e-01 -1.1987e+00  1.1971e+00
  1.00000e-07 -6.0000e-01 -1.1987e+00  1.1971e+00
  1.10000e-07  6.0000e-01 -9.2508e-01  1.0838e+00
  1.20000e-07  6.0000e-01 -4.4372e-01  7.7761e-01
  1.30000e-07  6.0000e-01  1.5402e-01  4.5379e-01
  1.40000e-07  6.0000e-01  7.7438e-01  1.3789e-01
  1.50000e-07  6.0000e-01  1.1233e+00 -1.7206e-01
  1.60000e-07  6.0000e-01  1.1901e+00 -4.7616e-01
  1.70000e-07  6.0000e-01  1.2140e+00 -7.6967e-01
  1.80000e-07  6.0000e-01  1.2230e+00 -1.0234e+00
  1.90000e-07  6.0000e-01  1.2237e+00 -1.1837e+00
  2.00000e-07  6.0000e-01  1.2219e+00 -1.2623e+00
  2.10000e-07  6.0000e-01  1.2207e+00 -1.2824e+00
  2.20000e-07  6.0000e-01  1.2158e+00 -1.2556e+00
  2.30000e-07  6.0000e-01  1.2120e+00 -1.2308e+00
  2.40000e-07  6.0000e-01  1.2101e+00 -1.2096e+00
  2.50000e-07  6.0000e-01  1.2076e+00 -1.1974e+00
  2.60000e-07  6.0000e-01  1.2043e+00 -1.1936e+00
  2.70000e-07  6.0000e-01  1.2024e+00 -1.1929e+00
  2.80000e-07  6.0000e-01  1.2018e+00 -1.1949e+00
  2.90000e-07  6.0000e-01  1.2011e+00 -1.1969e+00
  3.00000e-07  6.0000e-01  1.2005e+00 -1.1990e+00
  3.10000e-07  6.0000e-01  1.1995e+00 -1.1993e+00
  3.20000e-07  6.0000e-01  1.1986e+00 -1.1995e+00
  3.30000e-07  6.0000e-01  1.1976e+00 -1.1997e+00
  3.40000e-07  6.0000e-01  1.1970e+00 -1.1997e+00
  3.50000e-07  6.0000e-01  1.1972e+00 -1.1994e+00
  3.60000e-07  6.0000e-01  1.1974e+00 -1.1991e+00
  3.70000e-07  6.0000e-01  1.1976e+00 -1.1988e+00
  3.80000e-07  6.0000e-01  1.1978e+00 -1.1985e+00
  3.90000e-07  6.0000e-01  1.1980e+00 -1.1982e+00
  4.00000e-07  6.0000e-01  1.1981e+00 -1.1980e+00
  4.10000e-07  6.0000e-01  1.1979e+00 -1.1981e+00
  4.20000e-07  6.0000e-01  1.1977e+00 -1.1983e+00
  4.30000e-07  6.0000e-01  1.1975e+00 -1.1984e+00
  4.40000e-07  6.0000e-01  1.1973e+00 -1.1985e+00
  4.50000e-07  6.0000e-01  1.1971e+00 -1.1986e+00
  4.60000e-07  6.0000e-01  1.1969e+00 -1.1988e+00
  4.70000e-07  6.0000e-01  1.1967e+00 -1.1989e+00
  4.80000e-07  6.0000e-01  1.1965e+00 -1.1990e+00
  4.90000e-07  6.0000e-01  1.1963e+00 -1.1991e+00
  5.00000e-07  6.0000e-01  1.1963e+00 -1.1992e+00
  5.10000e-07  6.0000e-01  1.1964e+00 -1.1991e+00
  5.20000e-07  6.0000e-01  1.1965e+00 -1.1990e+00
  5.30000e-07  6.0000e-01  1.1967e+00 -1.1990e+00
  5.40000e-07  6.0000e-01  1.1968e+00 -1.1989e+00
  5.50000e-07  6.0000e-01  1.1969e+00 -1.1989e+00
  5.60000e-07  6.0000e-01  1.1971e+00 -1.1988e+00
  5.70000e-07  6.0000e-01  1.1972e+00 -1.1988e+00
  5.80000e-07  6.0000e-01  1.1973e+00 -1.1987e+00
  5.90000e-07  6.0000e-01  1.1974e+00 -1.1987e+00
  6.00000e-07  6.0000e-01  1.1976e+00 -1.1986e+00
  6.10000e-07  6.0000e-01  1.1977e+00 -1.1986e+00
  6.20000e-07  6.0000e-01  1.1978e+00 -1.1985e+00
  6.30000e-07  6.0000e-01  1.1979e+00 -1.1985e+00
  6.40000e-07  6.0000e-01  1.1980e+00 -1.1984e+00
  6.50000e-07  6.0000e-01  1.1980e+00 -1.1984e+00
  6.60000e-07  6.0000e-01  1.1979e+00 -1.1985e+00
  6.70000e-07  6.0000e-01  1.1978e+00 -1.1985e+00
  6.80000e-07  6.0000e-01  1.1977e+00 -1.1985e+00
  6.90000e-07  6.0000e-01  1.1976e+00 -1.1985e+00
  7.00000e-07  6.0000e-01  1.1976e+00 -1.1986e+00
  7.10000e-07  6.0000e-01  1.1975e+00 -1.1986e+00
  7.20000e-07  6.0000e-01  1.1974e+00 -1.1986e+00
  7.30000e-07  6.0000e-01  1.1973e+00 -1.1986e+00
  7.40000e-07  6.0000e-01  1.1972e+00 -1.1987e+00
  7.50000e-07  6.0000e-01  1.1971e+00 -1.1987e+00
  7.60000e-07  6.0000e-01  1.1971e+00 -1.1987e+00
  7.70000e-07  6.0000e-01  1.1970e+00 -1.1987e+00
  7.80000e-07  6.0000e-01  1.1969e+00 -1.1987e+00
  7.90000e-07  6.0000e-01  1.1968e+00 -1.1988e+00
  8.00000e-07  6.0000e-01  1.1967e+00 -1.1988e+00
  8.10000e-07  6.0000e-01  1.1966e+00 -1.1988e+00
  8.20000e-07  6.0000e-01  1.1966e+00 -1.1988e+00
  8.30000e-07  6.0000e-01  1.1965e+00 -1.1989e+00
  8.40000e-07  6.0000e-01  1.1964e+00 -1.1989e+00
  8.50000e-07  6.0000e-01  1.1963e+00 -1.1989e+00
  8.60000e-07  6.0000e-01  1.1962e+00 -1.1989e+00
  8.70000e-07  6.0000e-01  1.1962e+00 -1.1989e+00
  8.80000e-07  6.0000e-01  1.1963e+00 -1.1989e+00
  8.90000e-07  6.0000e-01  1.1963e+00 -1.1989e+00
  9.00000e-07  6.0000e-01  1.1964e+00 -1.1989e+00
  9.10000e-07  6.0000e-01  1.1964e+00 -1.1989e+00
  9.20000e-07  6.0000e-01  1.1965e+00 -1.1989e+00
  9.30000e-07  6.0000e-01  1.1965e+00 -1.1989e+00
  9.40000e-07  6.0000e-01  1.1966e+00 -1.1989e+00
  9.50000e-07  6.0000e-01  1.1966e+00 -1.1989e+00
  9.60000e-07  6.0000e-01  1.1967e+00 -1.1988e+00
  9.70000e-07  6.0000e-01  1.1967e+00 -1.1988e+00
  9.80000e-07  6.0000e-01  1.1968e+00 -1.1988e+00
  9.90000e-07  6.0000e-01  1.1968e+00 -1.1988e+00
  1.00000e-06  6.0000e-01  1.1969e+00 -1.1988e+00
  1.01000e-06  6.0000e-01  1.1969e+00 -1.1988e+00
  1.02000e-06  6.0000e-01  1.1970e+00 -1.1988e+00
  1.03000e-06  6.0000e-01  1.1970e+00 -1.1988e+00
  1.04000e-06  6.0000e-01  1.1971e+00 -1.1988e+00
  1.05000e-06  6.0000e-01  1.1971e+00 -1.1987e+00
  1.06000e-06  6.0000e-01  1.1972e+00 -1.1987e+00
  1.07000e-06  6.0000e-01  1.1972e+00 -1.1987e+00
  1.08000e-06  6.0000e-01  1.1973e+00 -1.1987e+00
  1.09000e-06  6.0000e-01  1.1973e+00 -1.1987e+00
  1.10000e-06  6.0000e-01  1.1974e+00 -1.1987e+00
  1.11000e-06  6.0000e-01  1.1974e+00 -1.1987e+00
  1.12000e-06  6.0000e-01  1.1975e+00 -1.1987e+00
  1.13000e-06  6.0000e-01  1.1975e+00 -1.1987e+00
  1.14000e-06  6.0000e-01  1.1976e+00 -1.1987e+00
  1.15000e-06  6.0000e-01  1.1976e+00 -1.1986e+00
  1.16000e-06  6.0000e-01  1.1977e+00 -1.1986e+00
  1.17000e-06  6.0000e-01  1.1977e+00 -1.1986e+00
  1.18000e-06  6.0000e-01  1.1978e+00 -1.1986e+00
  1.19000e-06  6.0000e-01  1.1978e+00 -1.1986e+00
  1.20000e-06  6.0000e-01  1.1979e+00 -1.1986e+00
  1.21000e-06  6.0000e-01  1.1979e+00 -1.1986e+00
  1.22000e-06  6.0000e-01  1.1980e+00 -1.1986e+00
  1.23000e-06  6.0000e-01  1.1980e+00 -1.1986e+00
  1.24000e-06  6.0000e-01  1.1980e+00 -1.1986e+00
  1.25000e-06  6.0000e-01  1.1980e+00 -1.1986e+00
  1.26000e-06  6.0000e-01  1.1979e+00 -1.1986e+00
  1.27000e-06  6.0000e-01  1.1979e+00 -1.1986e+00
  1.28000e-06  6.0000e-01  1.1979e+00 -1.1986e+00
  1.29000e-06  6.0000e-01  1.1978e+00 -1.1986e+00
  1.30000e-06  6.0000e-01  1.1978e+00 -1.1986e+00
  1.31000e-06  6.0000e-01  1.1978e+00 -1.1986e+00
  1.32000e-06  6.0000e-01  1.1977e+00 -1.1986e+00
  1.33000e-06  6.0000e-01  1.1977e+00 -1.1986e+00
  1.34000e-06  6.0000e-01  1.1977e+00 -1.1986e+00
  1.35000e-06  6.0000e-01  1.1976e+00 -1.1986e+00
  1.36000e-06  6.0000e-01  1.1976e+00 -1.1986e+00
  1.37000e-06  6.0000e-01  1.1976e+00 -1.1986e+00
  1.38000e-06  6.0000e-01  1.1975e+00 -1.1986e+00
  1.39000e-06  6.0000e-01  1.1975e+00 -1.1986e+00
  1.40000e-06  6.0000e-01  1.1975e+00 -1.1986e+00
  1.41000e-06  6.0000e-01  1.1974e+00 -1.1987e+00
  1.42000e-06  6.0000e-01  1.1974e+00 -1.1987e+00
  1.43000e-06  6.0000e-01  1.1974e+00 -1.1987e+00
  1.44000e-06  6.0000e-01  1.1973e+00 -1.1987e+00
  1.45000e-06  6.0000e-01  1.1973e+00 -1.1987e+00
  1.46000e-06  6.0000e-01  1.1973e+00 -1.1987e+00
  1.47000e-06  6.0000e-01  1.1972e+00 -1.1987e+00
  1.48000e-06  6.0000e-01  1.1972e+00 -1.1987e+00
  1.49000e-06  6.0000e-01  1.1972e+00 -1.1987e+00
  1.50000e-06  6.0000e-01  1.1971e+00 -1.1987e+00
  1.51000e-06  6.0000e-01  1.1971e+00 -1.1987e+00
  1.52000e-06  6.0000e-01  1.1971e+00 -1.1987e+00
  1.53000e-06  6.0000e-01  1.1970e+00 -1.1987e+00
  1.54000e-06  6.0000e-01  1.1970e+00 -1.1987e+00
  1.55000e-06  6.0000e-01  1.1970e+00 -1.1987e+00
  1.56000e-06  6.0000e-01  1.1969e+00 -1.1987e+00
  1.57000e-06  6.0000e-01  1.1969e+00 -1.1987e+00
  1.58000e-06  6.0000e-01  1.1969e+00 -1.1987e+00
  1.59000e-06  6.0000e-01  1.1968e+00 -1.1988e+00
  1.60000e-06  6.0000e-01  1.1968e+00 -1.1988e+00
  1.61000e-06  6.0000e-01  1.1968e+00 -1.1988e+00
  1.62000e-06  6.0000e-01  1.1968e+00 -1.1988e+00
  1.63000e-06  6.0000e-01  1.1967e+00 -1.1988e+00
  1.64000e-06  6.0000e-01  1.1967e+00 -1.1988e+00
  1.65000e-06  6.0000e-01  1.1967e+00 -1.1988e+00
  1.66000e-06  6.0000e-01  1.1966e+00 -1.1988e+00
  1.67000e-06  6.0000e-01  1.1966e+00 -1.1988e+00
  1.68000e-06  6.0000e-01  1.1966e+00 -1.1988e+00
  1.69000e-06  6.0000e-01  1.1965e+00 -1.1988e+00
  1.70000e-06  6.0000e-01  1.1965e+00 -1.1988e+00
  1.71000e-06  6.0000e-01  1.1965e+00 -1.1988e+00
  1.72000e-06  6.0000e-01  1.1964e+00 -1.1988e+00
  1.73000e-06  6.0000e-01  1.1964e+00 -1.1988e+00
  1.74000e-06  6.0000e-01  1.1964e+00 -1.1988e+00
  1.75000e-06  6.0000e-01  1.1963e+00 -1.1988e+00
  1.76000e-06  6.0000e-01  1.1963e+00 -1.1988e+00
  1.77000e-06  6.0000e-01  1.1963e+00 -1.1989e+00
  1.78000e-06  6.0000e-01  1.1962e+00 -1.1989e+00
  1.79000e-06  6.0000e-01  1.1962e+00 -1.1989e+00
  1.80000e-06  6.0000e-01  1.1962e+00 -1.1989e+00
  1.81000e-06  6.0000e-01  1.1962e+00 -1.1989e+00
  1.82000e-06  6.0000e-01  1.1962e+00 -1.1989e+00
  1.83000e-06  6.0000e-01  1.1962e+00 -1.1989e+00
  1.84000e-06  6.0000e-01  1.1963e+00 -1.1989e+00
  1.85000e-06  6.0000e-01  1.1963e+00 -1.1989e+00
  1.86000e-06  6.0000e-01  1.1963e+00 -1.1988e+00
  1.87000e-06  6.0000e-01  1.1963e+00 -1.1988e+00
  1.88000e-06  6.0000e-01  1.1963e+00 -1.1988e+00
  1.89000e-06  6.0000e-01  1.1964e+00 -1.1988e+00
  1.90000e-06  6.0000e-01  1.1964e+00 -1.1988e+00
  1.91000e-06  6.0000e-01  1.1964e+00 -1.1988e+00
  1.92000e-06  6.0000e-01  1.1964e+00 -1.1988e+00
  1.93000e-06  6.0000e-01  1.1964e+00 -1.1988e+00
  1.94000e-06  6.0000e-01  1.1965e+00 -1.1988e+00
  1.95000e-06  6.0000e-01  1.1965e+00 -1.1988e+00
  1.96000e-06  6.0000e-01  1.1965e+00 -1.1988e+00
  1.97000e-06  6.0000e-01  1.1965e+00 -1.1988e+00
  1.98000e-06  6.0000e-01  1.1966e+00 -1.1988e+00
  1.99000e-06  6.0000e-01  1.1966e+00 -1.1988e+00
  2.00000e-06  6.0000e-01  1.1966e+00 -1.1988e+00
  2.01000e-06  6.0000e-01  1.1966e+00 -1.1988e+00
  2.02000e-06  6.0000e-01  1.1966e+00 -1.1988e+00
  2.03000e-06  6.0000e-01  1.1967e+00 -1.1988e+00
  2.04000e-06  6.0000e-01  1.1967e+00 -1.1988e+00
  2.05000e-06  6.0000e-01  1.1967e+00 -1.1988e+00
  2.06000e-06  6.0000e-01  1.1967e+00 -1.1988e+00
  2.07000e-06  6.0000e-01  1.1967e+00 -1.1988e+00
  2.08000e-06  6.0000e-01  1.1968e+00 -1.1988e+00
  2.09000e-06  6.0000e-01  1.1968e+00 -1.1988e+00
  2.10000e-06  6.0000e-01  1.1968e+00 -1.1988e+00
  2.11000e-06  6.0000e-01  1.1968e+00 -1.1988e+00
  2.12000e-06  6.0000e-01  1.1968e+00 -1.1988e+00
  2.13000e-06  6.0000e-01  1.1969e+00 -1.1988e+00
  2.14000e-06  6.0000e-01  1.1969e+00 -1.1988e+00
  2.15000e-06  6.0000e-01  1.1969e+00 -1.1988e+00
  2.16000e-06  6.0000e-01  1.1969e+00 -1.1988e+00
  2.17000e-06  6.0000e-01  1.1969e+00 -1.1988e+00
  2.18000e-06  6.0000e-01  1.1970e+00 -1.1987e+00
  2.19000e-06  6.0000e-01  1.1970e+00 -1.1987e+00
  2.20000e-06  6.0000e-01  1.1970e+00 -1.1987e+00
  2.21000e-06  6.0000e-01  1.1970e+00 -1.1987e+00
  2.22000e-06  6.0000e-01  1.1971e+00 -1.1987e+00
  2.23000e-06  6.0000e-01  1.1971e+00 -1.1987e+00
  2.24000e-06  6.0000e-01  1.1971e+00 -1.1987e+00
  2.25000e-06  6.0000e-01  1.1971e+00 -1.1987e+00
  2.26000e-06  6.0000e-01  1.1971e+00 -1.1987e+00
  2.27000e-06  6.0000e-01  1.1972e+00 -1.1987e+00
  2.28000e-06  6.0000e-01  1.1972e+00 -1.1987e+00
  2.29000e-06  6.0000e-01  1.1972e+00 -1.1987e+00
  2.30000e-06  6.0000e-01  1.1972e+00 -1.1987e+00
  2.31000e-06  6.0000e-01  1.1972e+00 -1.1987e+00
  2.32000e-06  6.0000e-01  1.1973e+00 -1.1987e+00
  2.33000e-06  6.0000e-01  1.1973e+00 -1.1987e+00
  2.34000e-06  6.0000e-01  1.1973e+00 -1.1987e+00
  2.35000e-06  6.0000e-01  1.1973e+00 -1.1987e+00
  2.36000e-06  6.0000e-01  1.1973e+00 -1.1987e+00
  2.37000e-06  6.0000e-01  1.1974e+00 -1.1987e+00
  2.38000e-06  6.0000e-01  1.1974e+00 -1.1987e+00
  2.39000e-06  6.0000e-01  1.1974e+00 -1.1987e+00
  2.40000e-06  6.0000e-01  1.1974e+00 -1.1987e+00
  2.41000e-06  6.0000e-01  1.1975e+00 -1.1987e+00
  2.42000e-06  6.0000e-01  1.1975e+00 -1.1987e+00
  2.43000e-06  6.0000e-01  1.1975e+00 -1.1987e+00
  2.44000e-06  6.0000e-01  1.1975e+00 -1.1987e+00
  2.45000e-06  6.0000e-01  1.1975e+00 -1.1987e+00
  2.46000e-06  6.0000e-01  1.1976e+00 -1.1987e+00
  2.47000e-06  6.0000e-01  1.1976e+00 -1.1987e+00
  2.48000e-06  6.0000e-01  1.1976e+00 -1.1987e+00
  2.49000e-06  6.0000e-01  1.1976e+00 -1.1987e+00
  2.50000e-06  6.0000e-01  1.1976e+00 -1.1987e+00
  2.51000e-06  6.0000e-01  1.1977e+00 -1.1986e+00
  2.52000e-06  6.0000e-01  1.1977e+00 -1.1986e+00
  2.53000e-06  6.0000e-01  1.1977e+00 -1.1986e+00
  2.54000e-06  6.0000e-01  1.1977e+00 -1.1986e+00
  2.55000e-06  6.0000e-01  1.1977e+00 -1.1986e+00
  2.56000e-06  6.0000e-01  1.1978e+00 -1.1986e+00
  2.57000e-06  6.0000e-01  1.1978e+00 -1.1986e+00
  2.58000e-06  6.0000e-01  1.1978e+00 -1.1986e+00
  2.59000e-06  6.0000e-01  1.1978e+00 -1.1986e+00
  2.60000e-06  6.0000e-01  1.1978e+00 -1.1986e+00
  2.61000e-06  6.0000e-01  1.1979e+00 -1.1986e+00
  2.62000e-06  6.0000e-01  1.1979e+00 -1.1986e+00
  2.63000e-06  6.0000e-01  1.1979e+00 -1.1986e+00
  2.64000e-06  6.0000e-01  1.1979e+00 -1.1986e+00
  2.65000e-06  6.0000e-01  1.1980e+00 -1.1986e+00
  2.66000e-06  6.0000e-01  1.1980e+00 -1.1986e+00
  2.67000e-06  6.0000e-01  1.1980e+00 -1.1986e+00
  2.68000e-06  6.0000e-01  1.1980e+00 -1.1986e+00
  2.69000e-06  6.0000e-01  1.1980e+00 -1.1986e+00
  2.70000e-06  6.0000e-01  1.1980e+00 -1.1986e+00
  2.71000e-06  6.0000e-01  1.1979e+00 -1.1986e+00
  2.72000e-06  6.0000e-01  1.1979e+00 -1.1986e+00
  2.73000e-06  6.0000e-01  1.1979e+00 -1.1986e+00
  2.74000e-06  6.0000e-01  1.1979e+00 -1.1986e+00
  2.75000e-06  6.0000e-01  1.1979e+00 -1.1986e+00
  2.76000e-06  6.0000e-01  1.1979e+00 -1.1986e+00
  2.77000e-06  6.0000e-01  1.1979e+00 -1.1986e+00
  2.78000e-06  6.0000e-01  1.1978e+00 -1.1986e+00
  2.79000e-06  6.0000e-01  1.1978e+00 -1.1986e+00
  2.80000e-06  6.0000e-01  1.1978e+00 -1.1986e+00
  2.81000e-06  6.0000e-01  1.1978e+00 -1.1986e+00
  2.82000e-06  6.0000e-01  1.1978e+00 -1.1986e+00
  2.83000e-06  6.0000e-01  1.1978e+00 -1.1986e+00
  2.84000e-06  6.0000e-01  1.1978e+00 -1.1986e+00
  2.85000e-06  6.0000e-01  1.1977e+00 -1.1986e+00
  2.86000e-06  6.0000e-01  1.1977e+00 -1.1986e+00
  2.87000e-06  6.0000e-01  1.1977e+00 -1.1986e+00
  2.88000e-06  6.0000e-01  1.1977e+00 -1.1986e+00
  2.89000e-06  6.0000e-01  1.1977e+00 -1.1986e+00
  2.90000e-06  6.0000e-01  1.1977e+00 -1.1986e+00
  2.91000e-06  6.0000e-01  1.1976e+00 -1.1986e+00
  2.92000e-06  6.0000e-01  1.1976e+00 -1.1986e+00
  2.93000e-06  6.0000e-01  1.1976e+00 -1.1986e+00
  2.94000e-06  6.0000e-01  1.1976e+00 -1.1987e+00
  2.95000e-06  6.0000e-01  1.1976e+00 -1.1987e+00
  2.96000e-06  6.0000e-01  1.1976e+00 -1.1987e+00
  2.97000e-06  6.0000e-01  1.1976e+00 -1.1987e+00
  2.98000e-06  6.0000e-01  1.1975e+00 -1.1987e+00
  2.99000e-06  6.0000e-01  1.1975e+00 -1.1987e+00
  3.00000e-06  6.0000e-01  1.1975e+00 -1.1987e+00
  3.01000e-06  6.0000e-01  1.1975e+00 -1.1987e+00
  3.02000e-06  6.0000e-01  1.1975e+00 -1.1987e+00
  3.03000e-06  6.0000e-01  1.1975e+00 -1.1987e+00
  3.04000e-06  6.0000e-01  1.1975e+00 -1.1987e+00
  3.05000e-06  6.0000e-01  1.1974e+00 -1.1987e+00
  3.06000e-06  6.0000e-01  1.1974e+00 -1.1987e+00
  3.07000e-06  6.0000e-01  1.1974e+00 -1.1987e+00
  3.08000e-06  6.0000e-01  1.1974e+00 -1.1987e+00
  3.09000e-06  6.0000e-01  1.1974e+00 -1.1987e+00
  3.10000e-06  6.0000e-01  1.1974e+00 -1.1987e+00
  3.11000e-06  6.0000e-01  1.1974e+00 -1.1987e+00
  3.12000e-06  6.0000e-01  1.1973e+00 -1.1987e+00
  3.13000e-06  6.0000e-01  1.1973e+00 -1.1987e+00
  3.14000e-06  6.0000e-01  1.1973e+00 -1.1987e+00
  3.15000e-06  6.0000e-01  1.1973e+00 -1.1987e+00
  3.16000e-06  6.0000e-01  1.1973e+00 -1.1987e+00
  3.17000e-06  6.0000e-01  1.1973e+00 -1.1987e+00
  3.18000e-06  6.0000e-01  1.1972e+00 -1.1987e+00
  3.19000e-06  6.0000e-01  1.1972e+00 -1.1987e+00
  3.20000e-06  6.0000e-01  1.1972e+00 -1.1987e+00
  3.21000e-06  6.0000e-01  1.1972e+00 -1.1987e+00
  3.22000e-06  6.0000e-01  1.1972e+00 -1.1987e+00
  3.23000e-06  6.0000e-01  1.1972e+00 -1.1987e+00
  3.24000e-06  6.0000e-01  1.1972e+00 -1.1987e+00
  3.25000e-06  6.0000e-01  1.1971e+00 -1.1987e+00
  3.26000e-06  6.0000e-01  1.1971e+00 -1.1987e+00
  3.27000e-06  6.0000e-01  1.1971e+00 -1.1987e+00
  3.28000e-06  6.0000e-01  1.1971e+00 -1.1987e+00
  3.29000e-06  6.0000e-01  1.1971e+00 -1.1987e+00
  3.30000e-06  6.0000e-01  1.1971e+00 -1.1987e+00
  3.31000e-06  6.0000e-01  1.1971e+00 -1.1987e+00
  3.32000e-06  6.0000e-01  1.1970e+00 -1.1987e+00
  3.33000e-06  6.0000e-01  1.1970e+00 -1.1987e+00
  3.34000e-06  6.0000e-01  1.1970e+00 -1.1987e+00
  3.35000e-06  6.0000e-01  1.1970e+00 -1.1987e+00
  3.36000e-06  6.0000e-01  1.1970e+00 -1.1987e+00
  3.37000e-06  6.0000e-01  1.1970e+00 -1.1987e+00
  3.38000e-06  6.0000e-01  1.1969e+00 -1.1987e+00
  3.39000e-06  6.0000e-01  1.1969e+00 -1.1987e+00
  3.40000e-06  6.0000e-01  1.1969e+00 -1.1987e+00
  3.41000e-06  6.0000e-01  1.1969e+00 -1.1987e+00
